### 2026-10-08 13:19:36 NZDT SETUP
13:19:41 >>> show stack
Virtual Chassis Stacking summary information

ID   Pending ID  MAC address        Priority  Status  Role
1    -           84e3.2787.0ac0     128       Ready   Backup Member
2    -           -                  -         -       Provisioned
3    -           84e3.2787.0740     128       Ready   Active Master
4    -           84e3.2787.09c0     128       Ready   Backup Member

Operational Status                 Normal operation
Stack MAC address                  0000.cd37.0d6f (Virtual MAC)
13:19:42 >>> show scada modbus tcp server
MODBUS is disabled
Connection to (10.38.215.10, 502) failed: [Errno 111] Connection refused
13:19:43 CONNECT 10.38.215.10:502 slave=0 -> FAILED (no TCP connection)
13:19:48 >>> configure terminal
Enter configuration commands, one per line.  End with CNTL/Z.
13:19:49 >>> scada modbus tcp server
13:19:50 >>> end
13:19:52 >>> show scada modbus tcp server
SCADA MODBUS Summary Information

MODBUS is enabled
Write access: disabled
Master heartbeat status: Not set
Master heartbeat timeout: 0

-------------------------------------
TCP Server Characteristics:
  Port            :   502
  Max Connections :     1

-------------------------------------
Statistics:
  Read Requests:
    coils                :          0
    discrete inputs      :          0
    holding registers    :         40
    input registers      :          0

  Write Requests:
    single coil          :          0
    single register      :          0
    multiple coils       :          0
    multiple registers   :          0

  Other Requests         :          0

  Exceptions:
    illegal function     :          0
    illegal data address :          2
    illegal data value   :          5
    slave device failure :          0
13:19:53 >>> show running-config | include scada
scada modbus tcp server
wrote /home/terrenceb/claude/device-testing/tb470/IE520/modbus-2026-10-08T1131/22651/stk_a.cfg: 3 header + 186 config lines
### 2026-10-08 13:20:02 NZDT CLI REFERENCE
13:20:07 >>> show system environment
Environment Monitoring Status

Stack member 1:

Overall Status: Normal

Resource ID: 100  Name: AT-IE520-28GSX
ID  Sensor (Units)                      Reading  Low Limit High Limit Status
1   Temp: System (Degrees C)                 48   90(Hyst)         95     Ok
2   Almmon: LED Output                       No        -          -       Ok
3   Almmon: Relay Output 1                 Open        -          -       Ok
4   Power Input 1                           Yes        -          -       Ok
5   Power Input 2                            No        -          -       Ok

Stack member 3:

Overall Status: Normal

Resource ID: 100  Name: AT-IE520-28GSX
ID  Sensor (Units)                      Reading  Low Limit High Limit Status
1   Temp: System (Degrees C)                 42   90(Hyst)         95     Ok
2   Almmon: LED Output                       No        -          -       Ok
3   Almmon: Relay Output 1               Closed        -          -       Ok
4   Power Input 1                            No        -          -       Ok
5   Power Input 2                           Yes        -          -       Ok

Stack member 4:

Overall Status: Normal

Resource ID: 100  Name: AT-IE520-28GSX
ID  Sensor (Units)                      Reading  Low Limit High Limit Status
1   Temp: System (Degrees C)                 44   90(Hyst)         95     Ok
2   Almmon: LED Output                       No        -          -       Ok
3   Almmon: Relay Output 1                 Open        -          -       Ok
4   Power Input 1                           Yes        -          -       Ok
5   Power Input 2                            No        -          -       Ok
### 2026-10-08 13:20:08 NZDT unit 1
13:20:08 CONNECT 10.38.215.10:502 slave=1 -> ok
13:20:08   TX 00 01 00 00 00 06 01 03 10 00 00 01
13:20:08 READ  0x1000 x1 ENUM unit 1 step1 #1 Sensor Type -> words=['0x0002'] value=2
13:20:08 CONNECT 10.38.215.10:502 slave=1 -> ok
13:20:08   TX 00 01 00 00 00 06 01 03 10 01 00 02
13:20:08 READ  0x1001 x2 FLOAT unit 1 step2 #1 Sensor Reading -> words=['0x4240', '0x0000'] value=48.0
13:20:08 CONNECT 10.38.215.10:502 slave=1 -> ok
13:20:08   TX 00 01 00 00 00 06 01 03 10 03 00 01
13:20:08 READ  0x1003 x1 ENUM unit 1 step3 #1 Sensor Units -> words=['0x0002'] value=2
13:20:08 CONNECT 10.38.215.10:502 slave=1 -> ok
13:20:08   TX 00 01 00 00 00 06 01 03 10 04 00 01
13:20:08 READ  0x1004 x1 UINT unit 1 step4 #1 Sensor Fault Status -> words=['0x0000'] value=0
13:20:09 CONNECT 10.38.215.10:502 slave=1 -> ok
13:20:09   TX 00 01 00 00 00 06 01 03 10 05 00 01
13:20:09 READ  0x1005 x1 ENUM unit 1 step5 #2 Sensor Type -> words=['0x000b'] value=11
13:20:09 CONNECT 10.38.215.10:502 slave=1 -> ok
13:20:09   TX 00 01 00 00 00 06 01 03 10 06 00 02
13:20:09 READ  0x1006 x2 FLOAT unit 1 step5 #2 Sensor Reading -> words=['0x0000', '0x0000'] value=0.0
13:20:09 CONNECT 10.38.215.10:502 slave=1 -> ok
13:20:09   TX 00 01 00 00 00 06 01 03 10 08 00 01
13:20:09 READ  0x1008 x1 ENUM unit 1 step5 #2 Sensor Units -> words=['0x0000'] value=0
13:20:09 CONNECT 10.38.215.10:502 slave=1 -> ok
13:20:09   TX 00 01 00 00 00 06 01 03 10 09 00 01
13:20:09 READ  0x1009 x1 UINT unit 1 step5 #2 Sensor Fault Status -> words=['0x0000'] value=0
13:20:09 CONNECT 10.38.215.10:502 slave=1 -> ok
13:20:09   TX 00 01 00 00 00 06 01 03 10 00 00 19
13:20:09 READ  0x1000 x25 RAW unit 1 sensors 1-5 block -> words=['0x0002', '0x4240', '0x0000', '0x0002', '0x0000', '0x000b', '0x0000', '0x0000', '0x0000', '0x0000', '0x000a', '0x3f80', '0x0000', '0x0000', '0x0000', '0x0007', '0x3f80', '0x0000', '0x0000', '0x0000', '0x0007', '0x0000', '0x0000', '0x0000', '0x0000'] value=[2, 16960, 0, 2, 0, 11, 0, 0, 0, 0, 10, 16256, 0, 0, 0, 7, 16256, 0, 0, 0, 7, 0, 0, 0, 0]
Exception response 131 / 0
13:20:09 CONNECT 10.38.215.10:502 slave=1 -> ok
13:20:09   TX 00 01 00 00 00 06 01 03 10 19 00 05
13:20:09 READ  0x1019 x5 RAW unit 1 past sensor 5 -> EXCEPTION ExceptionResponse(dev_id=1, transaction_id=1, address=0, count=0, bits=[], registers=[], status=1)
### 2026-10-08 13:20:09 NZDT unit 3
13:20:09 CONNECT 10.38.215.10:502 slave=3 -> ok
13:20:09   TX 00 01 00 00 00 06 03 03 10 00 00 01
13:20:09 READ  0x1000 x1 ENUM unit 3 step1 #1 Sensor Type -> words=['0x0002'] value=2
13:20:09 CONNECT 10.38.215.10:502 slave=3 -> ok
13:20:09   TX 00 01 00 00 00 06 03 03 10 01 00 02
13:20:09 READ  0x1001 x2 FLOAT unit 3 step2 #1 Sensor Reading -> words=['0x4228', '0x0000'] value=42.0
13:20:09 CONNECT 10.38.215.10:502 slave=3 -> ok
13:20:09   TX 00 01 00 00 00 06 03 03 10 03 00 01
13:20:09 READ  0x1003 x1 ENUM unit 3 step3 #1 Sensor Units -> words=['0x0002'] value=2
13:20:10 CONNECT 10.38.215.10:502 slave=3 -> ok
13:20:10   TX 00 01 00 00 00 06 03 03 10 04 00 01
13:20:10 READ  0x1004 x1 UINT unit 3 step4 #1 Sensor Fault Status -> words=['0x0000'] value=0
13:20:10 CONNECT 10.38.215.10:502 slave=3 -> ok
13:20:10   TX 00 01 00 00 00 06 03 03 10 05 00 01
13:20:10 READ  0x1005 x1 ENUM unit 3 step5 #2 Sensor Type -> words=['0x000b'] value=11
13:20:10 CONNECT 10.38.215.10:502 slave=3 -> ok
13:20:10   TX 00 01 00 00 00 06 03 03 10 06 00 02
13:20:10 READ  0x1006 x2 FLOAT unit 3 step5 #2 Sensor Reading -> words=['0x0000', '0x0000'] value=0.0
13:20:10 CONNECT 10.38.215.10:502 slave=3 -> ok
13:20:10   TX 00 01 00 00 00 06 03 03 10 08 00 01
13:20:10 READ  0x1008 x1 ENUM unit 3 step5 #2 Sensor Units -> words=['0x0000'] value=0
13:20:10 CONNECT 10.38.215.10:502 slave=3 -> ok
13:20:10   TX 00 01 00 00 00 06 03 03 10 09 00 01
13:20:10 READ  0x1009 x1 UINT unit 3 step5 #2 Sensor Fault Status -> words=['0x0000'] value=0
13:20:10 CONNECT 10.38.215.10:502 slave=3 -> ok
13:20:10   TX 00 01 00 00 00 06 03 03 10 00 00 19
13:20:10 READ  0x1000 x25 RAW unit 3 sensors 1-5 block -> words=['0x0002', '0x4228', '0x0000', '0x0002', '0x0000', '0x000b', '0x0000', '0x0000', '0x0000', '0x0000', '0x000a', '0x0000', '0x0000', '0x0000', '0x0000', '0x0007', '0x0000', '0x0000', '0x0000', '0x0000', '0x0007', '0x3f80', '0x0000', '0x0000', '0x0000'] value=[2, 16936, 0, 2, 0, 11, 0, 0, 0, 0, 10, 0, 0, 0, 0, 7, 0, 0, 0, 0, 7, 16256, 0, 0, 0]
Exception response 131 / 0
13:20:10 CONNECT 10.38.215.10:502 slave=3 -> ok
13:20:10   TX 00 01 00 00 00 06 03 03 10 19 00 05
13:20:10 READ  0x1019 x5 RAW unit 3 past sensor 5 -> EXCEPTION ExceptionResponse(dev_id=3, transaction_id=1, address=0, count=0, bits=[], registers=[], status=1)
### 2026-10-08 13:20:10 NZDT unit 4
13:20:10 CONNECT 10.38.215.10:502 slave=4 -> ok
13:20:10   TX 00 01 00 00 00 06 04 03 10 00 00 01
13:20:10 READ  0x1000 x1 ENUM unit 4 step1 #1 Sensor Type -> words=['0x0002'] value=2
13:20:10 CONNECT 10.38.215.10:502 slave=4 -> ok
13:20:10   TX 00 01 00 00 00 06 04 03 10 01 00 02
13:20:10 READ  0x1001 x2 FLOAT unit 4 step2 #1 Sensor Reading -> words=['0x4230', '0x0000'] value=44.0
13:20:11 CONNECT 10.38.215.10:502 slave=4 -> ok
13:20:11   TX 00 01 00 00 00 06 04 03 10 03 00 01
13:20:11 READ  0x1003 x1 ENUM unit 4 step3 #1 Sensor Units -> words=['0x0002'] value=2
13:20:11 CONNECT 10.38.215.10:502 slave=4 -> ok
13:20:11   TX 00 01 00 00 00 06 04 03 10 04 00 01
13:20:11 READ  0x1004 x1 UINT unit 4 step4 #1 Sensor Fault Status -> words=['0x0000'] value=0
13:20:11 CONNECT 10.38.215.10:502 slave=4 -> ok
13:20:11   TX 00 01 00 00 00 06 04 03 10 05 00 01
13:20:11 READ  0x1005 x1 ENUM unit 4 step5 #2 Sensor Type -> words=['0x000b'] value=11
13:20:11 CONNECT 10.38.215.10:502 slave=4 -> ok
13:20:11   TX 00 01 00 00 00 06 04 03 10 06 00 02
13:20:11 READ  0x1006 x2 FLOAT unit 4 step5 #2 Sensor Reading -> words=['0x0000', '0x0000'] value=0.0
13:20:11 CONNECT 10.38.215.10:502 slave=4 -> ok
13:20:11   TX 00 01 00 00 00 06 04 03 10 08 00 01
13:20:11 READ  0x1008 x1 ENUM unit 4 step5 #2 Sensor Units -> words=['0x0000'] value=0
13:20:11 CONNECT 10.38.215.10:502 slave=4 -> ok
13:20:11   TX 00 01 00 00 00 06 04 03 10 09 00 01
13:20:11 READ  0x1009 x1 UINT unit 4 step5 #2 Sensor Fault Status -> words=['0x0000'] value=0
13:20:11 CONNECT 10.38.215.10:502 slave=4 -> ok
13:20:11   TX 00 01 00 00 00 06 04 03 10 00 00 19
13:20:11 READ  0x1000 x25 RAW unit 4 sensors 1-5 block -> words=['0x0002', '0x4230', '0x0000', '0x0002', '0x0000', '0x000b', '0x0000', '0x0000', '0x0000', '0x0000', '0x000a', '0x3f80', '0x0000', '0x0000', '0x0000', '0x0007', '0x3f80', '0x0000', '0x0000', '0x0000', '0x0007', '0x0000', '0x0000', '0x0000', '0x0000'] value=[2, 16944, 0, 2, 0, 11, 0, 0, 0, 0, 10, 16256, 0, 0, 0, 7, 16256, 0, 0, 0, 7, 0, 0, 0, 0]
Exception response 131 / 0
13:20:11 CONNECT 10.38.215.10:502 slave=4 -> ok
13:20:11   TX 00 01 00 00 00 06 04 03 10 19 00 05
13:20:11 READ  0x1019 x5 RAW unit 4 past sensor 5 -> EXCEPTION ExceptionResponse(dev_id=4, transaction_id=1, address=0, count=0, bits=[], registers=[], status=1)
### 2026-10-08 13:20:11 NZDT unit 0
13:20:11 CONNECT 10.38.215.10:502 slave=0 -> ok
13:20:11   TX 00 01 00 00 00 06 00 03 10 00 00 01
13:20:11 READ  0x1000 x1 ENUM unit 0 step1 #1 Sensor Type -> words=['0x0002'] value=2
13:20:12 CONNECT 10.38.215.10:502 slave=0 -> ok
13:20:12   TX 00 01 00 00 00 06 00 03 10 01 00 02
13:20:12 READ  0x1001 x2 FLOAT unit 0 step2 #1 Sensor Reading -> words=['0x4228', '0x0000'] value=42.0
13:20:12 CONNECT 10.38.215.10:502 slave=0 -> ok
13:20:12   TX 00 01 00 00 00 06 00 03 10 03 00 01
13:20:12 READ  0x1003 x1 ENUM unit 0 step3 #1 Sensor Units -> words=['0x0002'] value=2
13:20:12 CONNECT 10.38.215.10:502 slave=0 -> ok
13:20:12   TX 00 01 00 00 00 06 00 03 10 04 00 01
13:20:12 READ  0x1004 x1 UINT unit 0 step4 #1 Sensor Fault Status -> words=['0x0000'] value=0
13:20:12 CONNECT 10.38.215.10:502 slave=0 -> ok
13:20:12   TX 00 01 00 00 00 06 00 03 10 05 00 01
13:20:12 READ  0x1005 x1 ENUM unit 0 step5 #2 Sensor Type -> words=['0x000b'] value=11
13:20:12 CONNECT 10.38.215.10:502 slave=0 -> ok
13:20:12   TX 00 01 00 00 00 06 00 03 10 06 00 02
13:20:12 READ  0x1006 x2 FLOAT unit 0 step5 #2 Sensor Reading -> words=['0x0000', '0x0000'] value=0.0
13:20:12 CONNECT 10.38.215.10:502 slave=0 -> ok
13:20:12   TX 00 01 00 00 00 06 00 03 10 08 00 01
13:20:12 READ  0x1008 x1 ENUM unit 0 step5 #2 Sensor Units -> words=['0x0000'] value=0
13:20:12 CONNECT 10.38.215.10:502 slave=0 -> ok
13:20:12   TX 00 01 00 00 00 06 00 03 10 09 00 01
13:20:12 READ  0x1009 x1 UINT unit 0 step5 #2 Sensor Fault Status -> words=['0x0000'] value=0
13:20:12 CONNECT 10.38.215.10:502 slave=0 -> ok
13:20:12   TX 00 01 00 00 00 06 00 03 10 00 00 19
13:20:12 READ  0x1000 x25 RAW unit 0 sensors 1-5 block -> words=['0x0002', '0x4228', '0x0000', '0x0002', '0x0000', '0x000b', '0x0000', '0x0000', '0x0000', '0x0000', '0x000a', '0x0000', '0x0000', '0x0000', '0x0000', '0x0007', '0x0000', '0x0000', '0x0000', '0x0000', '0x0007', '0x3f80', '0x0000', '0x0000', '0x0000'] value=[2, 16936, 0, 2, 0, 11, 0, 0, 0, 0, 10, 0, 0, 0, 0, 7, 0, 0, 0, 0, 7, 16256, 0, 0, 0]
Exception response 131 / 0
13:20:12 CONNECT 10.38.215.10:502 slave=0 -> ok
13:20:12   TX 00 01 00 00 00 06 00 03 10 19 00 05
13:20:12 READ  0x1019 x5 RAW unit 0 past sensor 5 -> EXCEPTION ExceptionResponse(dev_id=0, transaction_id=1, address=0, count=0, bits=[], registers=[], status=1)
13:20:18 >>> show system environment
Environment Monitoring Status

Stack member 1:

Overall Status: Normal

Resource ID: 100  Name: AT-IE520-28GSX
ID  Sensor (Units)                      Reading  Low Limit High Limit Status
1   Temp: System (Degrees C)                 48   90(Hyst)         95     Ok
2   Almmon: LED Output                       No        -          -       Ok
3   Almmon: Relay Output 1                 Open        -          -       Ok
4   Power Input 1                           Yes        -          -       Ok
5   Power Input 2                            No        -          -       Ok

Stack member 3:

Overall Status: Normal

Resource ID: 100  Name: AT-IE520-28GSX
ID  Sensor (Units)                      Reading  Low Limit High Limit Status
1   Temp: System (Degrees C)                 42   90(Hyst)         95     Ok
2   Almmon: LED Output                       No        -          -       Ok
3   Almmon: Relay Output 1               Closed        -          -       Ok
4   Power Input 1                            No        -          -       Ok
5   Power Input 2                           Yes        -          -       Ok

Stack member 4:

Overall Status: Normal

Resource ID: 100  Name: AT-IE520-28GSX
ID  Sensor (Units)                      Reading  Low Limit High Limit Status
1   Temp: System (Degrees C)                 44   90(Hyst)         95     Ok
2   Almmon: LED Output                       No        -          -       Ok
3   Almmon: Relay Output 1                 Open        -          -       Ok
4   Power Input 1                           Yes        -          -       Ok
5   Power Input 2                            No        -          -       Ok
13:20:19 >>> show scada modbus tcp server
SCADA MODBUS Summary Information

MODBUS is enabled
Write access: disabled
Master heartbeat status: Not set
Master heartbeat timeout: 0

-------------------------------------
TCP Server Characteristics:
  Port            :   502
  Max Connections :     1

-------------------------------------
Statistics:
  Read Requests:
    coils                :          0
    discrete inputs      :          0
    holding registers    :         80
    input registers      :          0

  Write Requests:
    single coil          :          0
    single register      :          0
    multiple coils       :          0
    multiple registers   :          0

  Other Requests         :          0

  Exceptions:
    illegal function     :          0
    illegal data address :          2
    illegal data value   :          5
    slave device failure :          4
### 2026-10-08 13:20:20 NZDT TEARDOWN
13:20:25 >>> configure terminal
Enter configuration commands, one per line.  End with CNTL/Z.
13:20:26 >>> no scada modbus tcp server
13:20:27 >>> end
13:20:28 >>> show scada modbus tcp server
MODBUS is disabled
13:20:30 >>> show running-config | include scada
Connection to (10.38.215.10, 502) failed: [Errno 111] Connection refused
13:20:32 CONNECT 10.38.215.10:502 slave=0 -> FAILED (no TCP connection)
rcdiff rc=0 (no lines above = IDENTICAL)
